Freq.	V(n001)/I(V1)
1.00000000000000e+01	-1.00000000000000e+06,-0.00000000000000e+00
1.01000200040008e+01	-1.00000000000000e+06,-0.00000000000000e+00
1.02000400080016e+01	-1.00000000000000e+06,-0.00000000000000e+00
1.03000600120024e+01	-1.00000000000000e+06,-0.00000000000000e+00
1.04000800160032e+01	-1.00000000000000e+06,-0.00000000000000e+00
1.05001000200040e+01	-1.00000000000000e+06,-0.00000000000000e+00
1.06001200240048e+01	-1.00000000000000e+06,-0.00000000000000e+00
1.07001400280056e+01	-1.00000000000000e+06,-0.00000000000000e+00
1.08001600320064e+01	-1.00000000000000e+06,-0.00000000000000e+00
1.09001800360072e+01	-1.00000000000000e+06,-0.00000000000000e+00
1.10002000400080e+01	-1.00000000000000e+06,-0.00000000000000e+00
1.11002200440088e+01	-1.00000000000000e+06,-0.00000000000000e+00
1.12002400480096e+01	-1.00000000000000e+06,-0.00000000000000e+00
1.13002600520104e+01	-1.00000000000000e+06,-0.00000000000000e+00
1.14002800560112e+01	-1.00000000000000e+06,-0.00000000000000e+00
1.15003000600120e+01	-1.00000000000000e+06,-0.00000000000000e+00
1.16003200640128e+01	-1.00000000000000e+06,-0.00000000000000e+00
1.17003400680136e+01	-1.00000000000000e+06,-0.00000000000000e+00
1.18003600720144e+01	-1.00000000000000e+06,-0.00000000000000e+00
1.19003800760152e+01	-1.00000000000000e+06,-0.00000000000000e+00
1.20004000800160e+01	-1.00000000000000e+06,-0.00000000000000e+00
1.21004200840168e+01	-1.00000000000000e+06,-0.00000000000000e+00
1.22004400880176e+01	-1.00000000000000e+06,-0.00000000000000e+00
1.23004600920184e+01	-1.00000000000000e+06,-0.00000000000000e+00
1.24004800960192e+01	-1.00000000000000e+06,-0.00000000000000e+00
1.25005001000200e+01	-1.00000000000000e+06,-0.00000000000000e+00
1.26005201040208e+01	-1.00000000000000e+06,-0.00000000000000e+00
1.27005401080216e+01	-1.00000000000000e+06,-0.00000000000000e+00
1.28005601120224e+01	-1.00000000000000e+06,-0.00000000000000e+00
1.29005801160232e+01	-1.00000000000000e+06,-0.00000000000000e+00
1.30006001200240e+01	-1.00000000000000e+06,-0.00000000000000e+00
1.31006201240248e+01	-1.00000000000000e+06,-0.00000000000000e+00
1.32006401280256e+01	-1.00000000000000e+06,-0.00000000000000e+00
1.33006601320264e+01	-1.00000000000000e+06,-0.00000000000000e+00
1.34006801360272e+01	-1.00000000000000e+06,-0.00000000000000e+00
1.35007001400280e+01	-1.00000000000000e+06,-0.00000000000000e+00
1.36007201440288e+01	-1.00000000000000e+06,-0.00000000000000e+00
1.37007401480296e+01	-1.00000000000000e+06,-0.00000000000000e+00
1.38007601520304e+01	-1.00000000000000e+06,-0.00000000000000e+00
1.39007801560312e+01	-1.00000000000000e+06,-0.00000000000000e+00
1.40008001600320e+01	-1.00000000000000e+06,-0.00000000000000e+00
1.41008201640328e+01	-1.00000000000000e+06,-0.00000000000000e+00
1.42008401680336e+01	-1.00000000000000e+06,-0.00000000000000e+00
1.43008601720344e+01	-1.00000000000000e+06,-0.00000000000000e+00
1.44008801760352e+01	-1.00000000000000e+06,-0.00000000000000e+00
1.45009001800360e+01	-1.00000000000000e+06,-0.00000000000000e+00
1.46009201840368e+01	-1.00000000000000e+06,-0.00000000000000e+00
1.47009401880376e+01	-1.00000000000000e+06,-0.00000000000000e+00
1.48009601920384e+01	-1.00000000000000e+06,-0.00000000000000e+00
1.49009801960392e+01	-1.00000000000000e+06,-0.00000000000000e+00
1.50010002000400e+01	-1.00000000000000e+06,-0.00000000000000e+00
1.51010202040408e+01	-1.00000000000000e+06,-0.00000000000000e+00
1.52010402080416e+01	-1.00000000000000e+06,-0.00000000000000e+00
1.53010602120424e+01	-1.00000000000000e+06,-0.00000000000000e+00
1.54010802160432e+01	-1.00000000000000e+06,-0.00000000000000e+00
1.55011002200440e+01	-1.00000000000000e+06,-0.00000000000000e+00
1.56011202240448e+01	-1.00000000000000e+06,-0.00000000000000e+00
1.57011402280456e+01	-1.00000000000000e+06,-0.00000000000000e+00
1.58011602320464e+01	-1.00000000000000e+06,-0.00000000000000e+00
1.59011802360472e+01	-1.00000000000000e+06,-0.00000000000000e+00
1.60012002400480e+01	-1.00000000000000e+06,-0.00000000000000e+00
1.61012202440488e+01	-1.00000000000000e+06,-0.00000000000000e+00
1.62012402480496e+01	-1.00000000000000e+06,-0.00000000000000e+00
1.63012602520504e+01	-1.00000000000000e+06,-0.00000000000000e+00
1.64012802560512e+01	-1.00000000000000e+06,-0.00000000000000e+00
1.65013002600520e+01	-1.00000000000000e+06,-0.00000000000000e+00
1.66013202640528e+01	-1.00000000000000e+06,-0.00000000000000e+00
1.67013402680536e+01	-1.00000000000000e+06,-0.00000000000000e+00
1.68013602720544e+01	-1.00000000000000e+06,-0.00000000000000e+00
1.69013802760552e+01	-1.00000000000000e+06,-0.00000000000000e+00
1.70014002800560e+01	-1.00000000000000e+06,-0.00000000000000e+00
1.71014202840568e+01	-1.00000000000000e+06,-0.00000000000000e+00
1.72014402880576e+01	-1.00000000000000e+06,-0.00000000000000e+00
1.73014602920584e+01	-1.00000000000000e+06,-0.00000000000000e+00
1.74014802960592e+01	-1.00000000000000e+06,-0.00000000000000e+00
1.75015003000600e+01	-1.00000000000000e+06,-0.00000000000000e+00
1.76015203040608e+01	-1.00000000000000e+06,-0.00000000000000e+00
1.77015403080616e+01	-1.00000000000000e+06,-0.00000000000000e+00
1.78015603120624e+01	-1.00000000000000e+06,-0.00000000000000e+00
1.79015803160632e+01	-1.00000000000000e+06,-0.00000000000000e+00
1.80016003200640e+01	-1.00000000000000e+06,-0.00000000000000e+00
1.81016203240648e+01	-1.00000000000000e+06,-0.00000000000000e+00
1.82016403280656e+01	-1.00000000000000e+06,-0.00000000000000e+00
1.83016603320664e+01	-1.00000000000000e+06,-0.00000000000000e+00
1.84016803360672e+01	-1.00000000000000e+06,-0.00000000000000e+00
1.85017003400680e+01	-1.00000000000000e+06,-0.00000000000000e+00
1.86017203440688e+01	-1.00000000000000e+06,-0.00000000000000e+00
1.87017403480696e+01	-1.00000000000000e+06,-0.00000000000000e+00
1.88017603520704e+01	-1.00000000000000e+06,-0.00000000000000e+00
1.89017803560712e+01	-1.00000000000000e+06,-0.00000000000000e+00
1.90018003600720e+01	-1.00000000000000e+06,-0.00000000000000e+00
1.91018203640728e+01	-1.00000000000000e+06,-0.00000000000000e+00
1.92018403680736e+01	-1.00000000000000e+06,-0.00000000000000e+00
1.93018603720744e+01	-1.00000000000000e+06,-0.00000000000000e+00
1.94018803760752e+01	-1.00000000000000e+06,-0.00000000000000e+00
1.95019003800760e+01	-1.00000000000000e+06,-0.00000000000000e+00
1.96019203840768e+01	-1.00000000000000e+06,-0.00000000000000e+00
1.97019403880776e+01	-1.00000000000000e+06,-0.00000000000000e+00
1.98019603920784e+01	-1.00000000000000e+06,-0.00000000000000e+00
1.99019803960792e+01	-1.00000000000000e+06,-0.00000000000000e+00
2.00020004000800e+01	-1.00000000000000e+06,-0.00000000000000e+00
2.01020204040808e+01	-1.00000000000000e+06,-0.00000000000000e+00
2.02020404080816e+01	-1.00000000000000e+06,-0.00000000000000e+00
2.03020604120824e+01	-1.00000000000000e+06,-0.00000000000000e+00
2.04020804160832e+01	-1.00000000000000e+06,-0.00000000000000e+00
2.05021004200840e+01	-1.00000000000000e+06,-0.00000000000000e+00
2.06021204240848e+01	-1.00000000000000e+06,-0.00000000000000e+00
2.07021404280856e+01	-1.00000000000000e+06,-0.00000000000000e+00
2.08021604320864e+01	-1.00000000000000e+06,-0.00000000000000e+00
2.09021804360872e+01	-1.00000000000000e+06,-0.00000000000000e+00
2.10022004400880e+01	-1.00000000000000e+06,-0.00000000000000e+00
2.11022204440888e+01	-1.00000000000000e+06,-0.00000000000000e+00
2.12022404480896e+01	-1.00000000000000e+06,-0.00000000000000e+00
2.13022604520904e+01	-1.00000000000000e+06,-0.00000000000000e+00
2.14022804560912e+01	-1.00000000000000e+06,-0.00000000000000e+00
2.15023004600920e+01	-1.00000000000000e+06,-0.00000000000000e+00
2.16023204640928e+01	-1.00000000000000e+06,-0.00000000000000e+00
2.17023404680936e+01	-1.00000000000000e+06,-0.00000000000000e+00
2.18023604720944e+01	-1.00000000000000e+06,-0.00000000000000e+00
2.19023804760952e+01	-1.00000000000000e+06,-0.00000000000000e+00
2.20024004800960e+01	-1.00000000000000e+06,-0.00000000000000e+00
2.21024204840968e+01	-1.00000000000000e+06,-0.00000000000000e+00
2.22024404880976e+01	-1.00000000000000e+06,-0.00000000000000e+00
2.23024604920984e+01	-1.00000000000000e+06,-0.00000000000000e+00
2.24024804960992e+01	-1.00000000000000e+06,-0.00000000000000e+00
2.25025005001000e+01	-1.00000000000000e+06,-0.00000000000000e+00
2.26025205041008e+01	-1.00000000000000e+06,-0.00000000000000e+00
2.27025405081016e+01	-1.00000000000000e+06,-0.00000000000000e+00
2.28025605121024e+01	-1.00000000000000e+06,-0.00000000000000e+00
2.29025805161032e+01	-1.00000000000000e+06,-0.00000000000000e+00
2.30026005201040e+01	-1.00000000000000e+06,-0.00000000000000e+00
2.31026205241048e+01	-1.00000000000000e+06,-0.00000000000000e+00
2.32026405281056e+01	-1.00000000000000e+06,-0.00000000000000e+00
2.33026605321064e+01	-1.00000000000000e+06,-0.00000000000000e+00
2.34026805361072e+01	-1.00000000000000e+06,-0.00000000000000e+00
2.35027005401080e+01	-1.00000000000000e+06,-0.00000000000000e+00
2.36027205441088e+01	-1.00000000000000e+06,-0.00000000000000e+00
2.37027405481096e+01	-1.00000000000000e+06,-0.00000000000000e+00
2.38027605521104e+01	-1.00000000000000e+06,-0.00000000000000e+00
2.39027805561112e+01	-1.00000000000000e+06,-0.00000000000000e+00
2.40028005601120e+01	-1.00000000000000e+06,-0.00000000000000e+00
2.41028205641129e+01	-1.00000000000000e+06,-0.00000000000000e+00
2.42028405681137e+01	-1.00000000000000e+06,-0.00000000000000e+00
2.43028605721145e+01	-1.00000000000000e+06,-0.00000000000000e+00
2.44028805761153e+01	-1.00000000000000e+06,-0.00000000000000e+00
2.45029005801161e+01	-1.00000000000000e+06,-0.00000000000000e+00
2.46029205841169e+01	-1.00000000000000e+06,-0.00000000000000e+00
2.47029405881177e+01	-1.00000000000000e+06,-0.00000000000000e+00
2.48029605921185e+01	-1.00000000000000e+06,-0.00000000000000e+00
2.49029805961193e+01	-1.00000000000000e+06,-0.00000000000000e+00
2.50030006001201e+01	-1.00000000000000e+06,-0.00000000000000e+00
2.51030206041209e+01	-1.00000000000000e+06,-0.00000000000000e+00
2.52030406081217e+01	-1.00000000000000e+06,-0.00000000000000e+00
2.53030606121225e+01	-1.00000000000000e+06,-0.00000000000000e+00
2.54030806161233e+01	-1.00000000000000e+06,-0.00000000000000e+00
2.55031006201241e+01	-1.00000000000000e+06,-0.00000000000000e+00
2.56031206241249e+01	-1.00000000000000e+06,-0.00000000000000e+00
2.57031406281257e+01	-1.00000000000000e+06,-0.00000000000000e+00
2.58031606321265e+01	-1.00000000000000e+06,-0.00000000000000e+00
2.59031806361273e+01	-1.00000000000000e+06,-0.00000000000000e+00
2.60032006401281e+01	-1.00000000000000e+06,-0.00000000000000e+00
2.61032206441289e+01	-1.00000000000000e+06,-0.00000000000000e+00
2.62032406481297e+01	-1.00000000000000e+06,-0.00000000000000e+00
2.63032606521305e+01	-1.00000000000000e+06,-0.00000000000000e+00
2.64032806561313e+01	-1.00000000000000e+06,-0.00000000000000e+00
2.65033006601321e+01	-1.00000000000000e+06,-0.00000000000000e+00
2.66033206641329e+01	-1.00000000000000e+06,-0.00000000000000e+00
2.67033406681337e+01	-1.00000000000000e+06,-0.00000000000000e+00
2.68033606721345e+01	-1.00000000000000e+06,-0.00000000000000e+00
2.69033806761353e+01	-1.00000000000000e+06,-0.00000000000000e+00
2.70034006801361e+01	-1.00000000000000e+06,-0.00000000000000e+00
2.71034206841369e+01	-1.00000000000000e+06,-0.00000000000000e+00
2.72034406881377e+01	-1.00000000000000e+06,-0.00000000000000e+00
2.73034606921385e+01	-1.00000000000000e+06,-0.00000000000000e+00
2.74034806961393e+01	-1.00000000000000e+06,-0.00000000000000e+00
2.75035007001401e+01	-1.00000000000000e+06,-0.00000000000000e+00
2.76035207041409e+01	-1.00000000000000e+06,-0.00000000000000e+00
2.77035407081417e+01	-1.00000000000000e+06,-0.00000000000000e+00
2.78035607121425e+01	-1.00000000000000e+06,-0.00000000000000e+00
2.79035807161433e+01	-1.00000000000000e+06,-0.00000000000000e+00
2.80036007201441e+01	-1.00000000000000e+06,-0.00000000000000e+00
2.81036207241449e+01	-1.00000000000000e+06,-0.00000000000000e+00
2.82036407281457e+01	-1.00000000000000e+06,-0.00000000000000e+00
2.83036607321465e+01	-1.00000000000000e+06,-0.00000000000000e+00
2.84036807361473e+01	-1.00000000000000e+06,-0.00000000000000e+00
2.85037007401481e+01	-1.00000000000000e+06,-0.00000000000000e+00
2.86037207441489e+01	-1.00000000000000e+06,-0.00000000000000e+00
2.87037407481497e+01	-1.00000000000000e+06,-0.00000000000000e+00
2.88037607521505e+01	-1.00000000000000e+06,-0.00000000000000e+00
2.89037807561513e+01	-1.00000000000000e+06,-0.00000000000000e+00
2.90038007601521e+01	-1.00000000000000e+06,-0.00000000000000e+00
2.91038207641529e+01	-1.00000000000000e+06,-0.00000000000000e+00
2.92038407681537e+01	-1.00000000000000e+06,-0.00000000000000e+00
2.93038607721545e+01	-1.00000000000000e+06,-0.00000000000000e+00
2.94038807761553e+01	-1.00000000000000e+06,-0.00000000000000e+00
2.95039007801561e+01	-1.00000000000000e+06,-0.00000000000000e+00
2.96039207841569e+01	-1.00000000000000e+06,-0.00000000000000e+00
2.97039407881577e+01	-1.00000000000000e+06,-0.00000000000000e+00
2.98039607921585e+01	-1.00000000000000e+06,-0.00000000000000e+00
2.99039807961593e+01	-1.00000000000000e+06,-0.00000000000000e+00
3.00040008001601e+01	-1.00000000000000e+06,-0.00000000000000e+00
3.01040208041609e+01	-1.00000000000000e+06,-0.00000000000000e+00
3.02040408081617e+01	-1.00000000000000e+06,-0.00000000000000e+00
3.03040608121625e+01	-1.00000000000000e+06,-0.00000000000000e+00
3.04040808161633e+01	-1.00000000000000e+06,-0.00000000000000e+00
3.05041008201641e+01	-1.00000000000000e+06,-0.00000000000000e+00
3.06041208241649e+01	-1.00000000000000e+06,-0.00000000000000e+00
3.07041408281657e+01	-1.00000000000000e+06,-0.00000000000000e+00
3.08041608321665e+01	-1.00000000000000e+06,-0.00000000000000e+00
3.09041808361673e+01	-1.00000000000000e+06,-0.00000000000000e+00
3.10042008401681e+01	-1.00000000000000e+06,-0.00000000000000e+00
3.11042208441689e+01	-1.00000000000000e+06,-0.00000000000000e+00
3.12042408481697e+01	-1.00000000000000e+06,-0.00000000000000e+00
3.13042608521705e+01	-1.00000000000000e+06,-0.00000000000000e+00
3.14042808561713e+01	-1.00000000000000e+06,-0.00000000000000e+00
3.15043008601721e+01	-1.00000000000000e+06,-0.00000000000000e+00
3.16043208641729e+01	-1.00000000000000e+06,-0.00000000000000e+00
3.17043408681737e+01	-1.00000000000000e+06,-0.00000000000000e+00
3.18043608721745e+01	-1.00000000000000e+06,-0.00000000000000e+00
3.19043808761753e+01	-1.00000000000000e+06,-0.00000000000000e+00
3.20044008801761e+01	-1.00000000000000e+06,-0.00000000000000e+00
3.21044208841769e+01	-1.00000000000000e+06,-0.00000000000000e+00
3.22044408881777e+01	-1.00000000000000e+06,-0.00000000000000e+00
3.23044608921785e+01	-1.00000000000000e+06,-0.00000000000000e+00
3.24044808961793e+01	-1.00000000000000e+06,-0.00000000000000e+00
3.25045009001801e+01	-1.00000000000000e+06,-0.00000000000000e+00
3.26045209041809e+01	-1.00000000000000e+06,-0.00000000000000e+00
3.27045409081817e+01	-1.00000000000000e+06,-0.00000000000000e+00
3.28045609121825e+01	-1.00000000000000e+06,-0.00000000000000e+00
3.29045809161832e+01	-1.00000000000000e+06,-0.00000000000000e+00
3.30046009201840e+01	-1.00000000000000e+06,-0.00000000000000e+00
3.31046209241848e+01	-1.00000000000000e+06,-0.00000000000000e+00
3.32046409281856e+01	-1.00000000000000e+06,-0.00000000000000e+00
3.33046609321864e+01	-1.00000000000000e+06,-0.00000000000000e+00
3.34046809361872e+01	-1.00000000000000e+06,-0.00000000000000e+00
3.35047009401880e+01	-1.00000000000000e+06,-0.00000000000000e+00
3.36047209441888e+01	-1.00000000000000e+06,-0.00000000000000e+00
3.37047409481896e+01	-1.00000000000000e+06,-0.00000000000000e+00
3.38047609521904e+01	-1.00000000000000e+06,-0.00000000000000e+00
3.39047809561912e+01	-1.00000000000000e+06,-0.00000000000000e+00
3.40048009601920e+01	-1.00000000000000e+06,-0.00000000000000e+00
3.41048209641928e+01	-1.00000000000000e+06,-0.00000000000000e+00
3.42048409681936e+01	-1.00000000000000e+06,-0.00000000000000e+00
3.43048609721944e+01	-1.00000000000000e+06,-0.00000000000000e+00
3.44048809761952e+01	-1.00000000000000e+06,-0.00000000000000e+00
3.45049009801960e+01	-1.00000000000000e+06,-0.00000000000000e+00
3.46049209841968e+01	-1.00000000000000e+06,-0.00000000000000e+00
3.47049409881976e+01	-1.00000000000000e+06,-0.00000000000000e+00
3.48049609921984e+01	-1.00000000000000e+06,-0.00000000000000e+00
3.49049809961992e+01	-1.00000000000000e+06,-0.00000000000000e+00
3.50050010002000e+01	-1.00000000000000e+06,-0.00000000000000e+00
3.51050210042008e+01	-1.00000000000000e+06,-0.00000000000000e+00
3.52050410082016e+01	-1.00000000000000e+06,-0.00000000000000e+00
3.53050610122024e+01	-1.00000000000000e+06,-0.00000000000000e+00
3.54050810162032e+01	-1.00000000000000e+06,-0.00000000000000e+00
3.55051010202040e+01	-1.00000000000000e+06,-0.00000000000000e+00
3.56051210242048e+01	-1.00000000000000e+06,-0.00000000000000e+00
3.57051410282056e+01	-1.00000000000000e+06,-0.00000000000000e+00
3.58051610322064e+01	-1.00000000000000e+06,-0.00000000000000e+00
3.59051810362072e+01	-1.00000000000000e+06,-0.00000000000000e+00
3.60052010402080e+01	-1.00000000000000e+06,-0.00000000000000e+00
3.61052210442087e+01	-1.00000000000000e+06,-0.00000000000000e+00
3.62052410482095e+01	-1.00000000000000e+06,-0.00000000000000e+00
3.63052610522103e+01	-1.00000000000000e+06,-0.00000000000000e+00
3.64052810562111e+01	-1.00000000000000e+06,-0.00000000000000e+00
3.65053010602119e+01	-1.00000000000000e+06,-0.00000000000000e+00
3.66053210642127e+01	-1.00000000000000e+06,-0.00000000000000e+00
3.67053410682135e+01	-1.00000000000000e+06,-0.00000000000000e+00
3.68053610722143e+01	-1.00000000000000e+06,-0.00000000000000e+00
3.69053810762151e+01	-1.00000000000000e+06,-0.00000000000000e+00
3.70054010802159e+01	-1.00000000000000e+06,-0.00000000000000e+00
3.71054210842167e+01	-1.00000000000000e+06,-0.00000000000000e+00
3.72054410882175e+01	-1.00000000000000e+06,-0.00000000000000e+00
3.73054610922183e+01	-1.00000000000000e+06,-0.00000000000000e+00
3.74054810962191e+01	-1.00000000000000e+06,-0.00000000000000e+00
3.75055011002199e+01	-1.00000000000000e+06,-0.00000000000000e+00
3.76055211042207e+01	-1.00000000000000e+06,-0.00000000000000e+00
3.77055411082215e+01	-1.00000000000000e+06,-0.00000000000000e+00
3.78055611122223e+01	-1.00000000000000e+06,-0.00000000000000e+00
3.79055811162231e+01	-1.00000000000000e+06,-0.00000000000000e+00
3.80056011202239e+01	-1.00000000000000e+06,-0.00000000000000e+00
3.81056211242247e+01	-1.00000000000000e+06,-0.00000000000000e+00
3.82056411282255e+01	-1.00000000000000e+06,-0.00000000000000e+00
3.83056611322263e+01	-1.00000000000000e+06,-0.00000000000000e+00
3.84056811362271e+01	-1.00000000000000e+06,-0.00000000000000e+00
3.85057011402279e+01	-1.00000000000000e+06,-0.00000000000000e+00
3.86057211442287e+01	-1.00000000000000e+06,-0.00000000000000e+00
3.87057411482295e+01	-1.00000000000000e+06,-0.00000000000000e+00
3.88057611522303e+01	-1.00000000000000e+06,-0.00000000000000e+00
3.89057811562311e+01	-1.00000000000000e+06,-0.00000000000000e+00
3.90058011602319e+01	-1.00000000000000e+06,-0.00000000000000e+00
3.91058211642327e+01	-1.00000000000000e+06,-0.00000000000000e+00
3.92058411682334e+01	-1.00000000000000e+06,-0.00000000000000e+00
3.93058611722342e+01	-1.00000000000000e+06,-0.00000000000000e+00
3.94058811762350e+01	-1.00000000000000e+06,-0.00000000000000e+00
3.95059011802358e+01	-1.00000000000000e+06,-0.00000000000000e+00
3.96059211842366e+01	-1.00000000000000e+06,-0.00000000000000e+00
3.97059411882374e+01	-1.00000000000000e+06,-0.00000000000000e+00
3.98059611922382e+01	-1.00000000000000e+06,-0.00000000000000e+00
3.99059811962390e+01	-1.00000000000000e+06,-0.00000000000000e+00
4.00060012002398e+01	-1.00000000000000e+06,-0.00000000000000e+00
4.01060212042406e+01	-1.00000000000000e+06,-0.00000000000000e+00
