Freq.	V(n001)/I(V1)
1.00000000000000e+00	-4.00200057079298e+00,-3.32952628711737e-03
1.39998799976000e+00	-4.00200123874214e+00,-4.66132850603908e-03
1.79997599951999e+00	-4.00200212937618e+00,-5.99316238391167e-03
2.19996399927999e+00	-4.00200324272896e+00,-7.32503697110890e-03
2.59995199903998e+00	-4.00200457884441e+00,-8.65696131160656e-03
2.99993999879998e+00	-4.00200613777371e+00,-9.98894446036580e-03
3.39992799855997e+00	-4.00200791957764e+00,-1.13209954654559e-02
3.79991599831997e+00	-4.00200992432556e+00,-1.26531233827124e-02
4.19990399807996e+00	-4.00201215209503e+00,-1.39853372692286e-02
4.59989199783996e+00	-4.00201460297261e+00,-1.53176461836829e-02
4.99987999759995e+00	-4.00201727705355e+00,-1.66500591887080e-02
5.39986799735995e+00	-4.00202017444155e+00,-1.79825853503018e-02
5.79985599711994e+00	-4.00202329524925e+00,-1.93152337381541e-02
6.19984399687994e+00	-4.00202663959782e+00,-2.06480134255106e-02
6.59983199663993e+00	-4.00203020761718e+00,-2.19809334904090e-02
6.99981999639993e+00	-4.00203399944605e+00,-2.33140030139540e-02
7.39980799615992e+00	-4.00203801523174e+00,-2.46472310843944e-02
7.79979599591992e+00	-4.00204225513035e+00,-2.59806267931245e-02
8.19978399567991e+00	-4.00204671930676e+00,-2.73141992380799e-02
8.59977199543991e+00	-4.00205140793458e+00,-2.86479575218993e-02
8.99975999519990e+00	-4.00205632119617e+00,-2.99819107541837e-02
9.39974799495990e+00	-4.00206145928269e+00,-3.13160680504549e-02
9.79973599471989e+00	-4.00206682239414e+00,-3.26504385324821e-02
1.01997239944799e+01	-4.00207241073926e+00,-3.39850313296281e-02
1.05997119942399e+01	-4.00207822453569e+00,-3.53198555773572e-02
1.09996999939999e+01	-4.00208426400985e+00,-3.66549204196064e-02
1.13996879937599e+01	-4.00209052939710e+00,-3.79902350076343e-02
1.17996759935199e+01	-4.00209702094155e+00,-3.93258085011412e-02
1.21996639932799e+01	-4.00210373889637e+00,-4.06616500674609e-02
1.25996519930399e+01	-4.00211068352350e+00,-4.19977688832495e-02
1.29996399927999e+01	-4.00211785509391e+00,-4.33341741337918e-02
1.33996279925598e+01	-4.00212525388747e+00,-4.46708750138945e-02
1.37996159923198e+01	-4.00213288019305e+00,-4.60078807277618e-02
1.41996039920798e+01	-4.00214073430853e+00,-4.73452004891506e-02
1.45995919918398e+01	-4.00214881654075e+00,-4.86828435227242e-02
1.49995799915998e+01	-4.00215712720566e+00,-5.00208190627885e-02
1.53995679913598e+01	-4.00216566662822e+00,-5.13591363551567e-02
1.57995559911198e+01	-4.00217443514251e+00,-5.26978046563412e-02
1.61995439908798e+01	-4.00218343309170e+00,-5.40368332342259e-02
1.65995319906398e+01	-4.00219266082813e+00,-5.53762313683392e-02
1.69995199903998e+01	-4.00220211871326e+00,-5.67160083505833e-02
1.73995079901598e+01	-4.00221180711777e+00,-5.80561734847126e-02
1.77994959899198e+01	-4.00222172642155e+00,-5.93967360871211e-02
1.81994839896798e+01	-4.00223187701373e+00,-6.07377054876288e-02
1.85994719894398e+01	-4.00224225929273e+00,-6.20790910286780e-02
1.89994599891998e+01	-4.00225287366625e+00,-6.34209020665768e-02
1.93994479889598e+01	-4.00226372055135e+00,-6.47631479713773e-02
1.97994359887198e+01	-4.00227480037444e+00,-6.61058381273244e-02
2.01994239884798e+01	-4.00228611357133e+00,-6.74489819331343e-02
2.05994119882398e+01	-4.00229766058725e+00,-6.87925888024997e-02
2.09993999879998e+01	-4.00230944187692e+00,-7.01366681638013e-02
2.13993879877598e+01	-4.00232145790453e+00,-7.14812294612972e-02
2.17993759875198e+01	-4.00233370914380e+00,-7.28262821546071e-02
2.21993639872798e+01	-4.00234619607803e+00,-7.41718357197902e-02
2.25993519870398e+01	-4.00235891920013e+00,-7.55178996488869e-02
2.29993399867998e+01	-4.00237187901261e+00,-7.68644834509974e-02
2.33993279865598e+01	-4.00238507602770e+00,-7.82115966519968e-02
2.37993159863198e+01	-4.00239851076732e+00,-7.95592487953296e-02
2.41993039860798e+01	-4.00241218376315e+00,-8.09074494419535e-02
2.45992919858397e+01	-4.00242609555668e+00,-8.22562081707377e-02
2.49992799855997e+01	-4.00244024669920e+00,-8.36055345791474e-02
2.53992679853597e+01	-4.00245463775190e+00,-8.49554382831317e-02
2.57992559851197e+01	-4.00246926928589e+00,-8.63059289175814e-02
2.61992439848797e+01	-4.00248414188222e+00,-8.76570161369588e-02
2.65992319846397e+01	-4.00249925613197e+00,-8.90087096149027e-02
2.69992199843997e+01	-4.00251461263625e+00,-9.03610190456008e-02
2.73992079841597e+01	-4.00253021200627e+00,-9.17139541430817e-02
2.77991959839197e+01	-4.00254605486339e+00,-9.30675246423335e-02
2.81991839836797e+01	-4.00256214183915e+00,-9.44217402992245e-02
2.85991719834397e+01	-4.00257847357531e+00,-9.57766108908811e-02
2.89991599831997e+01	-4.00259505072395e+00,-9.71321462161820e-02
2.93991479829597e+01	-4.00261187394746e+00,-9.84883560960232e-02
2.97991359827197e+01	-4.00262894391860e+00,-9.98452503736417e-02
3.01991239824797e+01	-4.00264626132060e+00,-1.01202838914998e-01
3.05991119822397e+01	-4.00266382684715e+00,-1.02561131609043e-01
3.09990999819997e+01	-4.00268164120248e+00,-1.03920138368162e-01
3.13990879817597e+01	-4.00269970510145e+00,-1.05279869128500e-01
3.17990759815197e+01	-4.00271801926951e+00,-1.06640333850344e-01
3.21990639812797e+01	-4.00273658444286e+00,-1.08001542518231e-01
3.25990519810397e+01	-4.00275540136845e+00,-1.09363505141788e-01
3.29990399807997e+01	-4.00277447080403e+00,-1.10726231755578e-01
3.33990279805597e+01	-4.00279379351823e+00,-1.12089732419862e-01
3.37990159803197e+01	-4.00281337029064e+00,-1.13454017220618e-01
3.41990039800797e+01	-4.00283320191182e+00,-1.14819096270277e-01
3.45989919798396e+01	-4.00285328918339e+00,-1.16184979707541e-01
3.49989799795996e+01	-4.00287363291809e+00,-1.17551677698578e-01
3.53989679793596e+01	-4.00289423393983e+00,-1.18919200436480e-01
3.57989559791196e+01	-4.00291509308378e+00,-1.20287558142220e-01
3.61989439788796e+01	-4.00293621119642e+00,-1.21656761064860e-01
3.65989319786396e+01	-4.00295758913558e+00,-1.23026819481884e-01
3.69989199783996e+01	-4.00297922777055e+00,-1.24397743699661e-01
3.73989079781596e+01	-4.00300112798214e+00,-1.25769544053727e-01
3.77988959779196e+01	-4.00302329066270e+00,-1.27142230909278e-01
3.81988839776796e+01	-4.00304571671625e+00,-1.28515814661396e-01
3.85988719774396e+01	-4.00306840705855e+00,-1.29890305735517e-01
3.89988599771996e+01	-4.00309136261709e+00,-1.31265714588003e-01
3.93988479769596e+01	-4.00311458433128e+00,-1.32642051706154e-01
3.97988359767196e+01	-4.00313807315244e+00,-1.34019327608899e-01
4.01988239764796e+01	-4.00316183004389e+00,-1.35397552847009e-01
4.05988119762395e+01	-4.00318585598105e+00,-1.36776738003704e-01
4.09987999759995e+01	-4.00321015195150e+00,-1.38156893694760e-01
4.13987879757595e+01	-4.00323471895506e+00,-1.39538030569196e-01
4.17987759755195e+01	-4.00325955800388e+00,-1.40920159309447e-01
4.21987639752795e+01	-4.00328467012248e+00,-1.42303290631971e-01
4.25987519750395e+01	-4.00331005634790e+00,-1.43687435287471e-01
4.29987399747995e+01	-4.00333571772971e+00,-1.45072604061431e-01
4.33987279745595e+01	-4.00336165533015e+00,-1.46458807774479e-01
4.37987159743195e+01	-4.00338787022417e+00,-1.47846057282836e-01
4.41987039740795e+01	-4.00341436349956e+00,-1.49234363478664e-01
4.45986919738395e+01	-4.00344113625701e+00,-1.50623737290454e-01
4.49986799735995e+01	-4.00346818961019e+00,-1.52014189683688e-01
4.53986679733595e+01	-4.00349552468585e+00,-1.53405731661097e-01
4.57986559731195e+01	-4.00352314262393e+00,-1.54798374262978e-01
4.61986439728795e+01	-4.00355104457762e+00,-1.56192128567711e-01
4.65986319726394e+01	-4.00357923171348e+00,-1.57587005692426e-01
4.69986199723994e+01	-4.00360770521150e+00,-1.58983016793064e-01
4.73986079721594e+01	-4.00363646626524e+00,-1.60380173064993e-01
4.77985959719194e+01	-4.00366551608188e+00,-1.61778485743613e-01
4.81985839716794e+01	-4.00369485588237e+00,-1.63177966104430e-01
4.85985719714394e+01	-4.00372448690148e+00,-1.64578625463787e-01
4.89985599711994e+01	-4.00375441038793e+00,-1.65980475179281e-01
4.93985479709594e+01	-4.00378462760447e+00,-1.67383526650149e-01
4.97985359707194e+01	-4.00381513982801e+00,-1.68787791317810e-01
5.01985239704794e+01	-4.00384594834971e+00,-1.70193280666113e-01
5.05985119702394e+01	-4.00387705447509e+00,-1.71600006222078e-01
5.09984999699994e+01	-4.00390845952411e+00,-1.73007979556266e-01
5.13984879697594e+01	-4.00394016483135e+00,-1.74417212283150e-01
5.17984759695194e+01	-4.00397217174602e+00,-1.75827716061691e-01
5.21984639692794e+01	-4.00400448163215e+00,-1.77239502595840e-01
5.25984519690393e+01	-4.00403709586870e+00,-1.78652583634908e-01
5.29984399687993e+01	-4.00407001584961e+00,-1.80066970974069e-01
5.33984279685593e+01	-4.00410324298399e+00,-1.81482676455005e-01
5.37984159683193e+01	-4.00413677869619e+00,-1.82899711966202e-01
5.41984039680793e+01	-4.00417062442594e+00,-1.84318089443596e-01
5.45983919678393e+01	-4.00420478162847e+00,-1.85737820870895e-01
5.49983799675993e+01	-4.00423925177461e+00,-1.87158918280278e-01
5.53983679673593e+01	-4.00427403635094e+00,-1.88581393752798e-01
5.57983559671193e+01	-4.00430913685992e+00,-1.90005259418844e-01
5.61983439668793e+01	-4.00434455481998e+00,-1.91430527458744e-01
5.65983319666393e+01	-4.00438029176568e+00,-1.92857210103308e-01
5.69983199663993e+01	-4.00441634924784e+00,-1.94285319634264e-01
5.73983079661593e+01	-4.00445272883365e+00,-1.95714868384705e-01
5.77982959659193e+01	-4.00448943210681e+00,-1.97145868739886e-01
5.81982839656793e+01	-4.00452646066769e+00,-1.98578333137492e-01
5.85982719654392e+01	-4.00456381613343e+00,-2.00012274068344e-01
5.89982599651992e+01	-4.00460150013810e+00,-2.01447704076837e-01
5.93982479649592e+01	-4.00463951433284e+00,-2.02884635761525e-01
5.97982359647192e+01	-4.00467786038600e+00,-2.04323081775683e-01
6.01982239644792e+01	-4.00471653998327e+00,-2.05763054827864e-01
6.05982119642392e+01	-4.00475555482785e+00,-2.07204567682416e-01
6.09981999639992e+01	-4.00479490664056e+00,-2.08647633160063e-01
6.13981879637592e+01	-4.00483459716004e+00,-2.10092264138564e-01
6.17981759635192e+01	-4.00487462814287e+00,-2.11538473553061e-01
6.21981639632792e+01	-4.00491500136371e+00,-2.12986274396904e-01
6.25981519630392e+01	-4.00495571861549e+00,-2.14435679722114e-01
6.29981399627992e+01	-4.00499678170953e+00,-2.15886702639955e-01
6.33981279625592e+01	-4.00503819247573e+00,-2.17339356321572e-01
6.37981159623192e+01	-4.00507995276274e+00,-2.18793653998488e-01
6.41981039620792e+01	-4.00512206443804e+00,-2.20249608963376e-01
6.45980919618392e+01	-4.00516452938823e+00,-2.21707234570560e-01
6.49980799615992e+01	-4.00520734951911e+00,-2.23166544236551e-01
6.53980679613592e+01	-4.00525052675584e+00,-2.24627551440846e-01
6.57980559611192e+01	-4.00529406304319e+00,-2.26090269726379e-01
6.61980439608792e+01	-4.00533796034565e+00,-2.27554712700243e-01
6.65980319606392e+01	-4.00538222064760e+00,-2.29020894034266e-01
6.69980199603992e+01	-4.00542684595354e+00,-2.30488827465706e-01
6.73980079601592e+01	-4.00547183828822e+00,-2.31958526797836e-01
6.77979959599192e+01	-4.00551719969684e+00,-2.33430005900652e-01
6.81979839596792e+01	-4.00556293224525e+00,-2.34903278711401e-01
6.85979719594392e+01	-4.00560903802010e+00,-2.36378359235439e-01
6.89979599591992e+01	-4.00565551912908e+00,-2.37855261546678e-01
6.93979479589592e+01	-4.00570237770104e+00,-2.39333999788411e-01
6.97979359587192e+01	-4.00574961588627e+00,-2.40814588173954e-01
7.01979239584792e+01	-4.00579723585663e+00,-2.42297040987246e-01
7.05979119582392e+01	-4.00584523980575e+00,-2.43781372583659e-01
7.09978999579992e+01	-4.00589362994930e+00,-2.45267597390571e-01
7.13978879577592e+01	-4.00594240852511e+00,-2.46755729908112e-01
7.17978759575192e+01	-4.00599157779342e+00,-2.48245784709955e-01
7.21978639572792e+01	-4.00604114003707e+00,-2.49737776443890e-01
7.25978519570392e+01	-4.00609109756174e+00,-2.51231719832608e-01
7.29978399567992e+01	-4.00614145269614e+00,-2.52727629674443e-01
7.33978279565592e+01	-4.00619220779223e+00,-2.54225520844019e-01
7.37978159563192e+01	-4.00624336522542e+00,-2.55725408293116e-01
7.41978039560792e+01	-4.00629492739486e+00,-2.57227307051286e-01
7.45977919558392e+01	-4.00634689672359e+00,-2.58731232226657e-01
7.49977799555992e+01	-4.00639927565879e+00,-2.60237199006753e-01
7.53977679553592e+01	-4.00645206667203e+00,-2.61745222659087e-01
7.57977559551192e+01	-4.00650527225949e+00,-2.63255318532160e-01
7.61977439548792e+01	-4.00655889494220e+00,-2.64767502055973e-01
7.65977319546392e+01	-4.00661293726626e+00,-2.66281788743115e-01
7.69977199543992e+01	-4.00666740180313e+00,-2.67798194189240e-01
7.73977079541592e+01	-4.00672229114982e+00,-2.69316734074149e-01
7.77976959539192e+01	-4.00677760792917e+00,-2.70837424162352e-01
7.81976839536792e+01	-4.00683335479010e+00,-2.72360280304117e-01
7.85976719534392e+01	-4.00688953440785e+00,-2.73885318436027e-01
7.89976599531992e+01	-4.00694614948428e+00,-2.75412554582030e-01
7.93976479529592e+01	-4.00700320274806e+00,-2.76942004854205e-01
7.97976359527192e+01	-4.00706069695500e+00,-2.78473685453607e-01
8.01976239524792e+01	-4.00711863488828e+00,-2.80007612671006e-01
8.05976119522392e+01	-4.00717701935876e+00,-2.81543802887968e-01
8.09975999519992e+01	-4.00723585320520e+00,-2.83082272577569e-01
8.13975879517592e+01	-4.00729513929458e+00,-2.84623038305257e-01
8.17975759515192e+01	-4.00735488052240e+00,-2.86166116729800e-01
8.21975639512792e+01	-4.00741507981288e+00,-2.87711524604260e-01
8.25975519510392e+01	-4.00747574011935e+00,-2.89259278776629e-01
8.29975399507992e+01	-4.00753686442450e+00,-2.90809396191061e-01
8.33975279505592e+01	-4.00759845574064e+00,-2.92361893888539e-01
8.37975159503192e+01	-4.00766051711009e+00,-2.93916789007944e-01
8.41975039500792e+01	-4.00772305160538e+00,-2.95474098786941e-01
8.45974919498392e+01	-4.00778606232964e+00,-2.97033840562914e-01
8.49974799495992e+01	-4.00784955241688e+00,-2.98596031773953e-01
8.53974679493592e+01	-4.00791352503229e+00,-3.00160689959806e-01
8.57974559491192e+01	-4.00797798337261e+00,-3.01727832762849e-01
8.61974439488792e+01	-4.00804293066639e+00,-3.03297477929023e-01
8.65974319486392e+01	-4.00810837017438e+00,-3.04869643308937e-01
8.69974199483992e+01	-4.00817430518982e+00,-3.06444346858749e-01
8.73974079481592e+01	-4.00824073903879e+00,-3.08021606641277e-01
8.77973959479192e+01	-4.00830767508057e+00,-3.09601440826931e-01
8.81973839476792e+01	-4.00837511670797e+00,-3.11183867694796e-01
8.85973719474392e+01	-4.00844306734765e+00,-3.12768905633707e-01
8.89973599471992e+01	-4.00851153046054e+00,-3.14356573143208e-01
8.93973479469592e+01	-4.00858050954216e+00,-3.15946888834723e-01
8.97973359467192e+01	-4.00865000812298e+00,-3.17539871432525e-01
9.01973239464792e+01	-4.00872002976879e+00,-3.19135539774892e-01
9.05973119462392e+01	-4.00879057808112e+00,-3.20733912815179e-01
9.09972999459992e+01	-4.00886165669754e+00,-3.22335009622906e-01
9.13972879457592e+01	-4.00893326929212e+00,-3.23938849384904e-01
9.17972759455192e+01	-4.00900541957576e+00,-3.25545451406483e-01
9.21972639452792e+01	-4.00907811129663e+00,-3.27154835112404e-01
9.25972519450392e+01	-4.00915134824053e+00,-3.28767020048254e-01
9.29972399447992e+01	-4.00922513423132e+00,-3.30382025881483e-01
9.33972279445592e+01	-4.00929947313131e+00,-3.31999872402564e-01
9.37972159443192e+01	-4.00937436884172e+00,-3.33620579526241e-01
9.41972039440792e+01	-4.00944982530303e+00,-3.35244167292634e-01
9.45971919438392e+01	-4.00952584649547e+00,-3.36870655868678e-01
9.49971799435992e+01	-4.00960243643940e+00,-3.38500065549008e-01
9.53971679433592e+01	-4.00967959919581e+00,-3.40132416757490e-01
9.57971559431192e+01	-4.00975733886668e+00,-3.41767730048325e-01
9.61971439428792e+01	-4.00983565959551e+00,-3.43406026107316e-01
9.65971319426392e+01	-4.00991456556773e+00,-3.45047325753213e-01
9.69971199423992e+01	-4.00999406101117e+00,-3.46691649938880e-01
9.73971079421592e+01	-4.01007415019653e+00,-3.48339019752812e-01
9.77970959419192e+01	-4.01015483743785e+00,-3.49989456420166e-01
9.81970839416792e+01	-4.01023612709300e+00,-3.51642981304340e-01
9.85970719414392e+01	-4.01031802356415e+00,-3.53299615908175e-01
9.89970599411992e+01	-4.01040053129829e+00,-3.54959381875343e-01
9.93970479409592e+01	-4.01048365478767e+00,-3.56622300991772e-01
9.97970359407192e+01	-4.01056739857039e+00,-3.58288395186960e-01
1.00197023940479e+02	-4.01065176723086e+00,-3.59957686535388e-01
1.00597011940239e+02	-4.01073676540031e+00,-3.61630197258016e-01
1.00996999939999e+02	-4.01082239775737e+00,-3.63305949723607e-01
1.01396987939759e+02	-4.01090866902855e+00,-3.64984966450226e-01
1.01796975939519e+02	-4.01099558398881e+00,-3.66667270106715e-01
1.02196963939279e+02	-4.01108314746208e+00,-3.68352883514172e-01
1.02596951939039e+02	-4.01117136432189e+00,-3.70041829647331e-01
1.02996939938799e+02	-4.01126023949184e+00,-3.71734131636313e-01
1.03396927938559e+02	-4.01134977794621e+00,-3.73429812767900e-01
1.03796915938319e+02	-4.01143998471057e+00,-3.75128896487229e-01
1.04196903938079e+02	-4.01153086486233e+00,-3.76831406399308e-01
1.04596891937839e+02	-4.01162242353132e+00,-3.78537366270571e-01
1.04996879937599e+02	-4.01171466590047e+00,-3.80246800030514e-01
1.05396867937359e+02	-4.01180759720633e+00,-3.81959731773304e-01
1.05796855937119e+02	-4.01190122273974e+00,-3.83676185759342e-01
1.06196843936879e+02	-4.01199554784646e+00,-3.85396186417028e-01
1.06596831936639e+02	-4.01209057792778e+00,-3.87119758344289e-01
1.06996819936399e+02	-4.01218631844119e+00,-3.88846926310384e-01
1.07396807936159e+02	-4.01228277490105e+00,-3.90577715257558e-01
1.07796795935919e+02	-4.01237995287920e+00,-3.92312150302700e-01
1.08196783935679e+02	-4.01247785800568e+00,-3.94050256739204e-01
1.08596771935439e+02	-4.01257649596941e+00,-3.95792060038636e-01
1.08996759935199e+02	-4.01267587251885e+00,-3.97537585852576e-01
1.09396747934959e+02	-4.01277599346276e+00,-3.99286860014341e-01
1.09796735934719e+02	-4.01287686467083e+00,-4.01039908540893e-01
1.10196723934479e+02	-4.01297849207449e+00,-4.02796757634618e-01
1.10596711934239e+02	-4.01308088166757e+00,-4.04557433685206e-01
1.10996699933999e+02	-4.01318403950709e+00,-4.06321963271536e-01
1.11396687933759e+02	-4.01328797171400e+00,-4.08090373163567e-01
1.11796675933519e+02	-4.01339268447393e+00,-4.09862690324275e-01
1.12196663933279e+02	-4.01349818403798e+00,-4.11638941911595e-01
1.12596651933039e+02	-4.01360447672348e+00,-4.13419155280387e-01
1.12996639932799e+02	-4.01371156891485e+00,-4.15203357984438e-01
1.13396627932559e+02	-4.01381946706431e+00,-4.16991577778460e-01
1.13796615932319e+02	-4.01392817769280e+00,-4.18783842620131e-01
1.14196603932079e+02	-4.01403770739075e+00,-4.20580180672151e-01
1.14596591931839e+02	-4.01414806281891e+00,-4.22380620304364e-01
1.14996579931599e+02	-4.01425925070928e+00,-4.24185190095825e-01
1.15396567931359e+02	-4.01437127786591e+00,-4.25993918836899e-01
1.15796555931119e+02	-4.01448415116578e+00,-4.27806835531513e-01
1.16196543930879e+02	-4.01459787755975e+00,-4.29623969399287e-01
1.16596531930639e+02	-4.01471246407339e+00,-4.31445349877716e-01
1.16996519930399e+02	-4.01482791780798e+00,-4.33271006624445e-01
1.17396507930159e+02	-4.01494424594136e+00,-4.35100969519493e-01
1.17796495929919e+02	-4.01506145572894e+00,-4.36935268667608e-01
1.18196483929679e+02	-4.01517955450461e+00,-4.38773934400457e-01
1.18596471929439e+02	-4.01529854968177e+00,-4.40616997279105e-01
1.18996459929199e+02	-4.01541844875425e+00,-4.42464488096306e-01
1.19396447928959e+02	-4.01553925929736e+00,-4.44316437878853e-01
1.19796435928719e+02	-4.01566098896890e+00,-4.46172877890143e-01
1.20196423928479e+02	-4.01578364551017e+00,-4.48033839632470e-01
1.20596411928239e+02	-4.01590723674703e+00,-4.49899354849646e-01
1.20996399927999e+02	-4.01603177059099e+00,-4.51769455529403e-01
1.21396387927759e+02	-4.01615725504021e+00,-4.53644173905995e-01
1.21796375927519e+02	-4.01628369818068e+00,-4.55523542462755e-01
1.22196363927279e+02	-4.01641110818730e+00,-4.57407593934705e-01
1.22596351927039e+02	-4.01653949332495e+00,-4.59296361311185e-01
1.22996339926799e+02	-4.01666886194975e+00,-4.61189877838477e-01
1.23396327926559e+02	-4.01679922251009e+00,-4.63088177022589e-01
