Freq.	V(n001)/I(V1)
1.00000000000000e+01	-9.99946707970565e+01,6.28273326818953e-01
1.12018403680736e+02	-9.93372207294849e+01,6.97534833664028e+00
2.14036807361472e+02	-9.76363324825472e+01,1.30191996159986e+01
3.16055211042208e+02	-9.50331970720772e+01,1.85267967190623e+01
4.18073614722945e+02	-9.17252611146488e+01,2.33339306058020e+01
5.20092018403681e+02	-8.79323120402614e+01,2.73545922861020e+01
6.22110422084417e+02	-8.38660226279919e+01,3.05745680120438e+01
7.24128825765153e+02	-7.97089621287273e+01,3.30350363163577e+01
8.26147229445889e+02	-7.56044407278727e+01,3.48128590093107e+01
9.28165633126625e+02	-7.16552341751416e+01,3.60025906520181e+01
1.03018403680736e+03	-6.79279330445778e+01,3.67027408318714e+01
1.13220244048810e+03	-6.44598743526955e+01,3.70067746334930e+01
1.23422084416883e+03	-6.12665048918888e+01,3.69981640422324e+01
1.33623924784957e+03	-5.83479725059589e+01,3.67483873872666e+01
1.43825765153031e+03	-5.56944569425835e+01,3.63168133612320e+01
1.54027605521104e+03	-5.32901870643077e+01,3.57516365904730e+01
1.64229445889178e+03	-5.11163047671630e+01,3.50912923967576e+01
1.74431286257251e+03	-4.91528086995376e+01,3.43659970276325e+01
1.84633126625325e+03	-4.73798086028824e+01,3.35992174413744e+01
1.94834966993399e+03	-4.57782866690915e+01,3.28089776304856e+01
2.05036807361472e+03	-4.43305195573372e+01,3.20089700743246e+01
2.15238647729546e+03	-4.30202749170256e+01,3.12094746188602e+01
2.25440488097620e+03	-4.18328635574525e+01,3.04181033530379e+01
2.35642328465693e+03	-4.07551033542063e+01,2.96403961525585e+01
2.45844168833767e+03	-3.97752326499415e+01,2.88802921628823e+01
2.56046009201840e+03	-3.88827979168574e+01,2.81405004190610e+01
2.66247849569914e+03	-3.80685314681397e+01,2.74227896653934e+01
2.76449689937988e+03	-3.73242289247945e+01,2.67282141079967e+01
2.86651530306061e+03	-3.66426321046141e+01,2.60572887306009e+01
2.96853370674135e+03	-3.60173203687907e+01,2.54101251014233e+01
3.07055211042209e+03	-3.54426117865817e+01,2.47865363375261e+01
3.17257051410282e+03	-3.49134744429875e+01,2.41861180483892e+01
3.27458891778356e+03	-3.44254476008220e+01,2.36083106011087e+01
3.37660732146430e+03	-3.39745720888734e+01,2.30524468769338e+01
3.47862572514503e+03	-3.35573291226903e+01,2.25177887665434e+01
3.58064412882577e+03	-3.31705867078226e+01,2.20035549299426e+01
3.68266253250650e+03	-3.28115527837015e+01,2.15089417844018e+01
3.78468093618724e+03	-3.24777343115980e+01,2.10331392463619e+01
3.88669933986798e+03	-3.21669015742665e+01,2.05753424133474e+01
3.98871774354871e+03	-3.18770570267374e+01,2.01347601080069e+01
4.09073614722945e+03	-3.16064081104412e+01,1.97106210014715e+01
4.19275455091019e+03	-3.13533435125140e+01,1.93021778740289e+01
4.29477295459092e+03	-3.11164124166241e+01,1.89087104473662e+01
4.39679135827166e+03	-3.08943063500649e+01,1.85295271263701e+01
4.49880976195239e+03	-3.06858432839158e+01,1.81639659135145e+01
4.60082816563313e+03	-3.04899536889836e+01,1.78113947004412e+01
4.70284656931387e+03	-3.03056682904070e+01,1.74712110957628e+01
4.80486497299460e+03	-3.01321072987434e+01,1.71428419125312e+01
4.90688337667534e+03	-2.99684709256365e+01,1.68257424110098e+01
5.00890178035607e+03	-2.98140310183125e+01,1.65193953706480e+01
5.11092018403681e+03	-2.96681236696988e+01,1.62233100481549e+01
5.21293858771755e+03	-2.95301426803746e+01,1.59370210652745e+01
5.31495699139828e+03	-2.93995337652629e+01,1.56600872594577e+01
5.41697539507902e+03	-2.92757894123396e+01,1.53920905225065e+01
5.51899379875975e+03	-2.91584443129923e+01,1.51326346459114e+01
5.62101220244049e+03	-2.90470712942918e+01,1.48813441866592e+01
5.72303060612122e+03	-2.89412776925918e+01,1.46378633634374e+01
5.82504900980196e+03	-2.88407021157556e+01,1.44018549901738e+01
5.92706741348270e+03	-2.87450115481077e+01,1.41729994515436e+01
6.02908581716343e+03	-2.86538987580735e+01,1.39509937233025e+01
6.13110422084417e+03	-2.85670799735411e+01,1.37355504389467e+01
6.23312262452490e+03	-2.84842927943607e+01,1.35263970031782e+01
6.33514102820564e+03	-2.84052943151983e+01,1.33232747518827e+01
6.43715943188638e+03	-2.83298594352479e+01,1.31259381577631e+01
6.53917783556711e+03	-2.82577793341695e+01,1.29341540803633e+01
6.64119623924785e+03	-2.81888600961023e+01,1.27477010589300e+01
6.74321464292858e+03	-2.81229214657668e+01,1.25663686463712e+01
6.84523304660932e+03	-2.80597957225560e+01,1.23899567824522e+01
6.94725145029006e+03	-2.79993266601613e+01,1.22182752043101e+01
7.04926985397079e+03	-2.79413686607172e+01,1.20511428923467e+01
7.15128825765153e+03	-2.78857858537098e+01,1.18883875495770e+01
7.25330666133226e+03	-2.78324513509956e+01,1.17298451125444e+01
7.35532506501300e+03	-2.77812465502487e+01,1.15753592919704e+01
7.45734346869374e+03	-2.77320605000025e+01,1.14247811413708e+01
7.55936187237447e+03	-2.76847893202046e+01,1.12779686519444e+01
7.66138027605521e+03	-2.76393356728607e+01,1.11347863721220e+01
7.76339867973594e+03	-2.75956082779283e+01,1.09951050502398e+01
7.86541708341668e+03	-2.75535214701333e+01,1.08588012988876e+01
7.96743548709741e+03	-2.75129947928391e+01,1.07257572795610e+01
8.06945389077815e+03	-2.74739526255014e+01,1.05958604063283e+01
8.17147229445889e+03	-2.74363238415972e+01,1.04690030672982e+01
8.27349069813962e+03	-2.74000414942367e+01,1.03450823627492e+01
8.37550910182036e+03	-2.73650425269464e+01,1.02239998588562e+01
8.47752750550110e+03	-2.73312675073648e+01,1.01056613560102e+01
8.57954590918183e+03	-2.72986603818146e+01,9.98997667080086e+00
8.68156431286257e+03	-2.72671682489159e+01,9.87685943078385e+00
8.78358271654331e+03	-2.72367411505821e+01,9.76622688121758e+00
8.88560112022404e+03	-2.72073318789003e+01,9.65799970300610e+00
8.98761952390478e+03	-2.71788957975409e+01,9.55210184113522e+00
9.08963792758552e+03	-2.71513906764687e+01,9.44846034293690e+00
9.19165633126625e+03	-2.71247765388417e+01,9.34700520556092e+00
9.29367473494699e+03	-2.70990155190884e+01,9.24766923207464e+00
9.39569313862773e+03	-2.70740717312462e+01,9.15038789565009e+00
9.49771154230847e+03	-2.70499111467256e+01,9.05509921133388e+00
9.59972994598920e+03	-2.70265014807423e+01,8.96174361492895e+00
9.70174834966994e+03	-2.70038120867259e+01,8.87026384854886e+00
9.80376675335068e+03	-2.69818138580739e+01,8.78060485243430e+00
9.90578515703141e+03	-2.69604791366760e+01,8.69271366264872e+00
1.00078035607121e+04	-2.69397816276847e+01,8.60653931429563e+00
1.01098219643929e+04	-2.69196963200505e+01,8.52203274992332e+00
1.02118403680736e+04	-2.69001994123830e+01,8.43914673280513e+00
1.03138587717544e+04	-2.68812682437369e+01,8.35783576480349e+00
1.04158771754351e+04	-2.68628812289524e+01,8.27805600854524e+00
1.05178955791158e+04	-2.68450177982140e+01,8.19976521365342e+00
1.06199139827966e+04	-2.68276583405164e+01,8.12292264679706e+00
1.07219323864773e+04	-2.68107841507538e+01,8.04748902533612e+00
1.08239507901580e+04	-2.67943773801692e+01,7.97342645435278e+00
1.09259691938388e+04	-2.67784209899252e+01,7.90069836687379e+00
1.10279875975195e+04	-2.67628987075728e+01,7.82926946710088e+00
1.11300060012003e+04	-2.67477949862146e+01,7.75910567647801e+00
1.12320244048810e+04	-2.67330949661746e+01,7.69017408243447e+00
1.13340428085617e+04	-2.67187844390011e+01,7.62244288965381e+00
1.14360612122425e+04	-2.67048498136412e+01,7.55588137372696e+00
1.15380796159232e+04	-2.66912780846411e+01,7.49045983705718e+00
1.16400980196039e+04	-2.66780568022329e+01,7.42614956689290e+00
1.17421164232847e+04	-2.66651740441836e+01,7.36292279537107e+00
1.18441348269654e+04	-2.66526183892880e+01,7.30075266146217e+00
1.19461532306461e+04	-2.66403788923965e+01,7.23961317471337e+00
1.20481716343269e+04	-2.66284450608792e+01,7.17947918069346e+00
1.21501900380076e+04	-2.66168068324317e+01,7.12032632804815e+00
1.22522084416884e+04	-2.66054545541356e+01,7.06213103708075e+00
1.23542268453691e+04	-2.65943789626957e+01,7.00487046977721e+00
1.24562452490498e+04	-2.65835711657769e+01,6.94852250120002e+00
1.25582636527306e+04	-2.65730226243728e+01,6.89306569217966e+00
1.26602820564113e+04	-2.65627251361418e+01,6.83847926323623e+00
1.27623004600920e+04	-2.65526708196494e+01,6.78474306966818e+00
1.28643188637728e+04	-2.65428520994624e+01,6.73183757774827e+00
1.29663372674535e+04	-2.65332616920424e+01,6.67974384197059e+00
1.30683556711343e+04	-2.65238925923895e+01,6.62844348329571e+00
1.31703740748150e+04	-2.65147380613918e+01,6.57791866834360e+00
1.32723924784957e+04	-2.65057916138391e+01,6.52815208948733e+00
1.33744108821765e+04	-2.64970470070593e+01,6.47912694580269e+00
1.34764292858572e+04	-2.64884982301432e+01,6.43082692483191e+00
1.35784476895379e+04	-2.64801394937218e+01,6.38323618512131e+00
1.36804660932187e+04	-2.64719652202646e+01,6.33633933949537e+00
1.37824844968994e+04	-2.64639700348685e+01,6.29012143903176e+00
1.38845029005801e+04	-2.64561487565100e+01,6.24456795770345e+00
1.39865213042609e+04	-2.64484963897328e+01,6.19966477765633e+00
1.40885397079416e+04	-2.64410081167485e+01,6.15539817509172e+00
1.41905581116224e+04	-2.64336792899245e+01,6.11175480672590e+00
1.42925765153031e+04	-2.64265054246403e+01,6.06872169679899e+00
1.43945949189838e+04	-2.64194821924897e+01,6.02628622460804e+00
1.44966133226646e+04	-2.64126054148105e+01,5.98443611253977e+00
1.45986317263453e+04	-2.64058710565252e+01,5.94315941458014e+00
1.47006501300260e+04	-2.63992752202727e+01,5.90244450527879e+00
1.48026685337068e+04	-2.63928141408194e+01,5.86228006914785e+00
1.49046869373875e+04	-2.63864841797310e+01,5.82265509047531e+00
1.50067053410683e+04	-2.63802818202934e+01,5.78355884353430e+00
1.51087237447490e+04	-2.63742036626689e+01,5.74498088317081e+00
1.52107421484297e+04	-2.63682464192752e+01,5.70691103575284e+00
1.53127605521105e+04	-2.63624069103758e+01,5.66933939046504e+00
1.54147789557912e+04	-2.63566820598708e+01,5.63225629093377e+00
1.55167973594719e+04	-2.63510688912776e+01,5.59565232716798e+00
1.56188157631527e+04	-2.63455645238920e+01,5.55951832780261e+00
1.57208341668334e+04	-2.63401661691206e+01,5.52384535263074e+00
1.58228525705141e+04	-2.63348711269755e+01,5.48862468541290e+00
1.59248709741949e+04	-2.63296767827236e+01,5.45384782695114e+00
1.60268893778756e+04	-2.63245806036821e+01,5.41950648841691e+00
1.61289077815564e+04	-2.63195801361539e+01,5.38559258492195e+00
1.62309261852371e+04	-2.63146730024949e+01,5.35209822932202e+00
1.63329445889178e+04	-2.63098568983083e+01,5.31901572624372e+00
1.64349629925986e+04	-2.63051295897573e+01,5.28633756632527e+00
1.65369813962793e+04	-2.63004889109933e+01,5.25405642066214e+00
1.66389997999600e+04	-2.62959327616916e+01,5.22216513544967e+00
1.67410182036408e+04	-2.62914591046913e+01,5.19065672681383e+00
1.68430366073215e+04	-2.62870659637328e+01,5.15952437582339e+00
1.69450550110023e+04	-2.62827514212901e+01,5.12876142367544e+00
1.70470734146830e+04	-2.62785136164913e+01,5.09836136704775e+00
1.71490918183637e+04	-2.62743507431253e+01,5.06831785361112e+00
1.72511102220445e+04	-2.62702610477296e+01,5.03862467769538e+00
1.73531286257252e+04	-2.62662428277547e+01,5.00927577610312e+00
1.74551470294059e+04	-2.62622944298038e+01,4.98026522406505e+00
1.75571654330867e+04	-2.62584142479418e+01,4.95158723133177e+00
1.76591838367674e+04	-2.62546007220724e+01,4.92323613839649e+00
1.77612022404481e+04	-2.62508523363794e+01,4.89520641284362e+00
1.78632206441289e+04	-2.62471676178291e+01,4.86749264581846e+00
1.79652390478096e+04	-2.62435451347313e+01,4.84008954861330e+00
1.80672574514904e+04	-2.62399834953572e+01,4.81299194936558e+00
1.81692758551711e+04	-2.62364813466097e+01,4.78619478986375e+00
1.82712942588518e+04	-2.62330373727458e+01,4.75969312245680e+00
1.83733126625326e+04	-2.62296502941475e+01,4.73348210706378e+00
1.84753310662133e+04	-2.62263188661398e+01,4.70755700827920e+00
1.85773494698940e+04	-2.62230418778533e+01,4.68191319257103e+00
1.86793678735748e+04	-2.62198181511302e+01,4.65654612556792e+00
1.87813862772555e+04	-2.62166465394704e+01,4.63145136943210e+00
1.88834046809363e+04	-2.62135259270179e+01,4.60662458031506e+00
1.89854230846170e+04	-2.62104552275843e+01,4.58206150589301e+00
1.90874414882977e+04	-2.62074333837086e+01,4.55775798297889e+00
1.91894598919785e+04	-2.62044593657510e+01,4.53370993520873e+00
1.92914782956592e+04	-2.62015321710210e+01,4.50991337079919e+00
1.93934966993399e+04	-2.61986508229356e+01,4.48636438037406e+00
1.94955151030207e+04	-2.61958143702094e+01,4.46305913485714e+00
1.95975335067014e+04	-2.61930218860729e+01,4.43999388342908e+00
1.96995519103821e+04	-2.61902724675194e+01,4.41716495154622e+00
1.98015703140629e+04	-2.61875652345782e+01,4.39456873901895e+00
1.99035887177436e+04	-2.61848993296138e+01,4.37220171814756e+00
2.00056071214244e+04	-2.61822739166502e+01,4.35006043191392e+00
2.01076255251051e+04	-2.61796881807182e+01,4.32814149222656e+00
2.02096439287858e+04	-2.61771413272260e+01,4.30644157821775e+00
2.03116623324666e+04	-2.61746325813515e+01,4.28495743459050e+00
2.04136807361473e+04	-2.61721611874553e+01,4.26368587001409e+00
2.05156991398280e+04	-2.61697264085151e+01,4.24262375556604e+00
2.06177175435088e+04	-2.61673275255775e+01,4.22176802321951e+00
2.07197359471895e+04	-2.61649638372306e+01,4.20111566437416e+00
2.08217543508703e+04	-2.61626346590925e+01,4.18066372842915e+00
2.09237727545510e+04	-2.61603393233189e+01,4.16040932139715e+00
2.10257911582317e+04	-2.61580771781260e+01,4.14034960455746e+00
2.11278095619125e+04	-2.61558475873295e+01,4.12048179314744e+00
2.12298279655932e+04	-2.61536499298996e+01,4.10080315509085e+00
2.13318463692739e+04	-2.61514835995300e+01,4.08131100976179e+00
2.14338647729547e+04	-2.61493480042217e+01,4.06200272678301e+00
2.15358831766354e+04	-2.61472425658798e+01,4.04287572485812e+00
2.16379015803161e+04	-2.61451667199242e+01,4.02392747063544e+00
2.17399199839969e+04	-2.61431199149124e+01,4.00515547760367e+00
2.18419383876776e+04	-2.61411016121749e+01,3.98655730501774e+00
2.19439567913584e+04	-2.61391112854616e+01,3.96813055685377e+00
2.20459751950391e+04	-2.61371484206011e+01,3.94987288079272e+00
2.21479935987198e+04	-2.61352125151687e+01,3.93178196723134e+00
2.22500120024006e+04	-2.61333030781671e+01,3.91385554832001e+00
2.23520304060813e+04	-2.61314196297157e+01,3.89609139702605e+00
2.24540488097620e+04	-2.61295617007501e+01,3.87848732622237e+00
2.25560672134428e+04	-2.61277288327316e+01,3.86104118780026e+00
2.26580856171235e+04	-2.61259205773649e+01,3.84375087180558e+00
2.27601040208043e+04	-2.61241364963252e+01,3.82661430559778e+00
2.28621224244850e+04	-2.61223761609934e+01,3.80962945303116e+00
2.29641408281657e+04	-2.61206391521996e+01,3.79279431365724e+00
2.30661592318465e+04	-2.61189250599742e+01,3.77610692194810e+00
2.31681776355272e+04	-2.61172334833075e+01,3.75956534653984e+00
2.32701960392079e+04	-2.61155640299152e+01,3.74316768949552e+00
2.33722144428887e+04	-2.61139163160121e+01,3.72691208558705e+00
2.34742328465694e+04	-2.61122899660925e+01,3.71079670159546e+00
2.35762512502501e+04	-2.61106846127163e+01,3.69481973562901e+00
2.36782696539309e+04	-2.61090998963030e+01,3.67897941645865e+00
2.37802880576116e+04	-2.61075354649302e+01,3.66327400287024e+00
2.38823064612924e+04	-2.61059909741396e+01,3.64770178303308e+00
2.39843248649731e+04	-2.61044660867473e+01,3.63226107388428e+00
2.40863432686538e+04	-2.61029604726609e+01,3.61695022052852e+00
2.41883616723346e+04	-2.61014738087012e+01,3.60176759565268e+00
2.42903800760153e+04	-2.61000057784291e+01,3.58671159895503e+00
2.43923984796960e+04	-2.60985560719784e+01,3.57178065658859e+00
2.44944168833768e+04	-2.60971243858919e+01,3.55697322061782e+00
2.45964352870575e+04	-2.60957104229639e+01,3.54228776848916e+00
2.46984536907382e+04	-2.60943138920860e+01,3.52772280251378e+00
2.48004720944190e+04	-2.60929345080977e+01,3.51327684936369e+00
2.49024904980997e+04	-2.60915719916413e+01,3.49894845957926e+00
2.50045089017805e+04	-2.60902260690212e+01,3.48473620708914e+00
2.51065273054612e+04	-2.60888964720664e+01,3.47063868874145e+00
2.52085457091419e+04	-2.60875829379974e+01,3.45665452384632e+00
2.53105641128227e+04	-2.60862852092972e+01,3.44278235372910e+00
2.54125825165034e+04	-2.60850030335848e+01,3.42902084129438e+00
2.55146009201841e+04	-2.60837361634931e+01,3.41536867060023e+00
2.56166193238649e+04	-2.60824843565501e+01,3.40182454644249e+00
2.57186377275456e+04	-2.60812473750631e+01,3.38838719394866e+00
2.58206561312264e+04	-2.60800249860059e+01,3.37505535818145e+00
2.59226745349071e+04	-2.60788169609098e+01,3.36182780375150e+00
2.60246929385878e+04	-2.60776230757569e+01,3.34870331443906e+00
2.61267113422686e+04	-2.60764431108764e+01,3.33568069282434e+00
2.62287297459493e+04	-2.60752768508444e+01,3.32275875992643e+00
2.63307481496300e+04	-2.60741240843849e+01,3.30993635485060e+00
2.64327665533108e+04	-2.60729846042752e+01,3.29721233444338e+00
2.65347849569915e+04	-2.60718582072527e+01,3.28458557295571e+00
2.66368033606722e+04	-2.60707446939245e+01,3.27205496171367e+00
2.67388217643530e+04	-2.60696438686791e+01,3.25961940879654e+00
2.68408401680337e+04	-2.60685555396014e+01,3.24727783872230e+00
2.69428585717145e+04	-2.60674795183887e+01,3.23502919213993e+00
2.70448769753952e+04	-2.60664156202695e+01,3.22287242552885e+00
2.71468953790759e+04	-2.60653636639247e+01,3.21080651090468e+00
2.72489137827567e+04	-2.60643234714103e+01,3.19883043553203e+00
2.73509321864374e+04	-2.60632948680823e+01,3.18694320164307e+00
2.74529505901181e+04	-2.60622776825236e+01,3.17514382616278e+00
2.75549689937989e+04	-2.60612717464730e+01,3.16343134043984e+00
2.76569873974796e+04	-2.60602768947553e+01,3.15180478998368e+00
2.77590058011604e+04	-2.60592929652142e+01,3.14026323420709e+00
2.78610242048411e+04	-2.60583197986461e+01,3.12880574617445e+00
2.79630426085218e+04	-2.60573572387357e+01,3.11743141235545e+00
2.80650610122026e+04	-2.60564051319938e+01,3.10613933238405e+00
2.81670794158833e+04	-2.60554633276958e+01,3.09492861882265e+00
2.82690978195640e+04	-2.60545316778225e+01,3.08379839693125e+00
2.83711162232448e+04	-2.60536100370019e+01,3.07274780444164e+00
2.84731346269255e+04	-2.60526982624527e+01,3.06177599133623e+00
2.85751530306062e+04	-2.60517962139293e+01,3.05088211963163e+00
2.86771714342870e+04	-2.60509037536676e+01,3.04006536316701e+00
2.87791898379677e+04	-2.60500207463327e+01,3.02932490739646e+00
2.88812082416485e+04	-2.60491470589680e+01,3.01865994918595e+00
2.89832266453292e+04	-2.60482825609446e+01,3.00806969661474e+00
2.90852450490099e+04	-2.60474271239132e+01,2.99755336878047e+00
2.91872634526907e+04	-2.60465806217564e+01,2.98711019560866e+00
2.92892818563714e+04	-2.60457429305422e+01,2.97673941766582e+00
2.93913002600521e+04	-2.60449139284787e+01,2.96644028597688e+00
2.94933186637329e+04	-2.60440934958700e+01,2.95621206184575e+00
2.95953370674136e+04	-2.60432815150732e+01,2.94605401668019e+00
2.96973554710944e+04	-2.60424778704562e+01,2.93596543181967e+00
2.97993738747751e+04	-2.60416824483566e+01,2.92594559836709e+00
2.99013922784558e+04	-2.60408951370417e+01,2.91599381702387e+00
3.00034106821366e+04	-2.60401158266691e+01,2.90610939792822e+00
3.01054290858173e+04	-2.60393444092487e+01,2.89629166049673e+00
3.02074474894980e+04	-2.60385807786055e+01,2.88653993326924e+00
3.03094658931788e+04	-2.60378248303426e+01,2.87685355375663e+00
3.04114842968595e+04	-2.60370764618063e+01,2.86723186829178e+00
3.05135027005402e+04	-2.60363355720506e+01,2.85767423188343e+00
3.06155211042210e+04	-2.60356020618037e+01,2.84818000807295e+00
3.07175395079017e+04	-2.60348758334348e+01,2.83874856879380e+00
3.08195579115825e+04	-2.60341567909214e+01,2.82937929423413e+00
3.09215763152632e+04	-2.60334448398180e+01,2.82007157270155e+00
3.10235947189439e+04	-2.60327398872246e+01,2.81082480049090e+00
3.11256131226247e+04	-2.60320418417570e+01,2.80163838175468e+00
3.12276315263054e+04	-2.60313506135171e+01,2.79251172837539e+00
3.13296499299861e+04	-2.60306661140638e+01,2.78344425984129e+00
3.14316683336669e+04	-2.60299882563847e+01,2.77443540312356e+00
3.15336867373476e+04	-2.60293169548691e+01,2.76548459255655e+00
3.16357051410284e+04	-2.60286521252804e+01,2.75659126972012e+00
3.17377235447091e+04	-2.60279936847299e+01,2.74775488332384e+00
